time	V(out)	V(vc)
0.000000000000000e+00	4.663860e+00	-3.759395e-01
9.999999999073250e-10	4.663865e+00	-3.766223e-01
2.999999999938815e-09	4.663874e+00	-3.779880e-01
7.000000000001796e-09	4.663891e+00	-3.807184e-01
1.397656655341417e-08	4.663923e+00	-3.854786e-01
2.397656655335478e-08	4.663968e+00	-3.922974e-01
1.554051379811457e-07	4.664618e+00	-4.813956e-01
2.868337094089367e-07	4.665369e+00	-5.695869e-01
4.182622808367277e-07	4.666220e+00	-6.568712e-01
5.496908522645186e-07	4.667172e+00	-7.432487e-01
6.811194236923095e-07	4.668224e+00	-8.287192e-01
8.125479951201006e-07	4.669377e+00	-9.132828e-01
9.439765665478911e-07	4.670630e+00	-9.969395e-01
1.105405137975504e-06	4.672305e+00	-1.098487e+00
1.266833709403117e-06	4.674128e+00	-1.198763e+00
1.428262280830730e-06	4.676099e+00	-1.297769e+00
1.589690852258342e-06	4.678217e+00	-1.395504e+00
1.751119423685955e-06	4.680482e+00	-1.491968e+00
1.912547995113568e-06	4.682894e+00	-1.587161e+00
2.073976566541180e-06	4.685454e+00	-1.681083e+00
2.106833709398128e-06	4.685992e+00	-1.700056e+00
2.139690852255076e-06	4.686537e+00	-1.718977e+00
2.172547995112024e-06	4.687088e+00	-1.737847e+00
2.205405137968971e-06	4.687644e+00	-1.756666e+00
2.238262280825919e-06	4.688206e+00	-1.775434e+00
2.271119423682867e-06	4.688775e+00	-1.794150e+00
2.303976566539814e-06	4.689349e+00	-1.812816e+00
2.333976566539636e-06	4.689879e+00	-1.829813e+00
2.353976566539517e-06	4.690235e+00	-1.841120e+00
2.363976566539458e-06	4.690413e+00	-1.846766e+00
2.373976566539399e-06	4.690593e+00	-1.852407e+00
2.383976566539339e-06	4.690773e+00	-1.858042e+00
2.393976566539280e-06	4.690953e+00	-1.863672e+00
2.403976566539220e-06	4.691134e+00	-1.869294e+00
2.413976566539161e-06	4.691316e+00	-1.874902e+00
2.423976566539102e-06	4.691498e+00	-1.880488e+00
2.433976566539042e-06	4.691680e+00	-1.886038e+00
2.443976566538983e-06	4.691864e+00	-1.891538e+00
2.453976566538923e-06	4.692048e+00	-1.896968e+00
2.463976566538864e-06	4.692232e+00	-1.902301e+00
2.473976566538805e-06	4.692417e+00	-1.907503e+00
2.483976566538745e-06	4.692602e+00	-1.912532e+00
2.493976566538686e-06	4.692788e+00	-1.917332e+00
2.503976566538627e-06	4.692974e+00	-1.921832e+00
2.513976566538567e-06	4.693161e+00	-1.925939e+00
2.523976566538508e-06	4.693349e+00	-1.929538e+00
2.533976566538448e-06	4.693537e+00	-1.932485e+00
2.543976566538389e-06	4.693726e+00	-1.934601e+00
2.553976566538330e-06	4.693915e+00	-1.935762e+00
2.561265850080548e-06	4.694053e+00	-1.935929e+00
2.564664311501463e-06	4.694118e+00	-1.935733e+00
2.567010411510823e-06	4.694162e+00	-1.935452e+00
2.569617179617751e-06	4.694212e+00	-1.935014e+00
2.572365668557447e-06	4.694264e+00	-1.934409e+00
2.575659964505024e-06	4.694327e+00	-1.933451e+00
2.580647452626091e-06	4.694422e+00	-1.931481e+00
2.587662271353718e-06	4.694557e+00	-1.927646e+00
2.595569522911671e-06	4.694708e+00	-1.922205e+00
2.595682952651664e-06	4.694710e+00	-1.922114e+00
2.595909812131651e-06	4.694715e+00	-1.921916e+00
2.596363531091623e-06	4.694723e+00	-1.921513e+00
2.597270969011568e-06	4.694741e+00	-1.920692e+00
2.597678706048193e-06	4.694748e+00	-1.920318e+00
2.598076338959166e-06	4.694756e+00	-1.919950e+00
2.598352547718156e-06	4.694761e+00	-1.919695e+00
2.598672672324016e-06	4.694767e+00	-1.919399e+00
2.599129771613425e-06	4.694777e+00	-1.918978e+00
2.599286162391357e-06	4.694779e+00	-1.918834e+00
2.599374675505079e-06	4.694781e+00	-1.918753e+00
2.599435941926702e-06	4.694782e+00	-1.918696e+00
2.599513442023971e-06	4.694784e+00	-1.918625e+00
2.599600055963732e-06	4.694785e+00	-1.918546e+00
2.599699487965861e-06	4.694787e+00	-1.918454e+00
2.599808883795495e-06	4.694789e+00	-1.918354e+00
2.599947550907793e-06	4.694792e+00	-1.918227e+00
2.600113229295469e-06	4.694795e+00	-1.918075e+00
2.600325360276219e-06	4.694799e+00	-1.917881e+00
2.600483835525202e-06	4.694802e+00	-1.917737e+00
2.600699129769657e-06	4.694807e+00	-1.917540e+00
2.600905678036428e-06	4.694810e+00	-1.917352e+00
2.601295214630381e-06	4.694818e+00	-1.916997e+00
2.601703508382487e-06	4.694826e+00	-1.916626e+00
2.602172771133107e-06	4.694835e+00	-1.916201e+00
2.602968754784277e-06	4.694850e+00	-1.915482e+00
2.603866481389354e-06	4.694867e+00	-1.914673e+00
2.605152299174282e-06	4.694892e+00	-1.913520e+00
2.606574401170340e-06	4.694920e+00	-1.912250e+00
2.607478738701850e-06	4.694937e+00	-1.911445e+00
2.608472949903497e-06	4.694956e+00	-1.910563e+00
2.609664794899890e-06	4.694979e+00	-1.909508e+00
2.610908809714879e-06	4.695003e+00	-1.908411e+00
2.612211043183724e-06	4.695028e+00	-1.907265e+00
2.614293296899746e-06	4.695068e+00	-1.905438e+00
2.617877687967991e-06	4.695137e+00	-1.902306e+00
2.623008491485935e-06	4.695236e+00	-1.897840e+00
2.628378143650469e-06	4.695340e+00	-1.893182e+00
2.635599424998534e-06	4.695480e+00	-1.886934e+00
2.643181988572956e-06	4.695628e+00	-1.880384e+00
2.649192392244464e-06	4.695745e+00	-1.875198e+00
2.653834090911604e-06	4.695835e+00	-1.871197e+00
2.658015846052769e-06	4.695916e+00	-1.867594e+00
2.662137621829361e-06	4.695997e+00	-1.864043e+00
2.666281626377076e-06	4.696078e+00	-1.860475e+00
2.670506285290574e-06	4.696161e+00	-1.856839e+00
2.676485635053072e-06	4.696278e+00	-1.851695e+00
2.683162985609236e-06	4.696409e+00	-1.845954e+00
2.691618825209586e-06	4.696576e+00	-1.838687e+00
2.700981326655364e-06	4.696760e+00	-1.830647e+00
2.710981326655305e-06	4.696958e+00	-1.822067e+00
2.720981326655245e-06	4.697156e+00	-1.813493e+00
2.730981326655186e-06	4.697355e+00	-1.804925e+00
2.740981326655127e-06	4.697555e+00	-1.796365e+00
2.750981326655067e-06	4.697755e+00	-1.787811e+00
2.760981326655008e-06	4.697955e+00	-1.779264e+00
2.770981326654948e-06	4.698156e+00	-1.770723e+00
2.778314139262284e-06	4.698304e+00	-1.764464e+00
2.781708526295454e-06	4.698373e+00	-1.761569e+00
2.783656537258278e-06	4.698412e+00	-1.759907e+00
2.784531057780466e-06	4.698430e+00	-1.759161e+00
2.785040817732598e-06	4.698440e+00	-1.758726e+00
2.785696510900978e-06	4.698453e+00	-1.758167e+00
2.786343867540626e-06	4.698466e+00	-1.757615e+00
2.787089411770277e-06	4.698482e+00	-1.756980e+00
2.787895629451000e-06	4.698498e+00	-1.756292e+00
2.789321558918385e-06	4.698527e+00	-1.755077e+00
2.792166872590774e-06	4.698585e+00	-1.752652e+00
2.793633805246633e-06	4.698614e+00	-1.751402e+00
2.794956487559919e-06	4.698641e+00	-1.750275e+00
2.796296837060579e-06	4.698668e+00	-1.749133e+00
2.797658583039144e-06	4.698696e+00	-1.747972e+00
2.799227569970190e-06	4.698728e+00	-1.746636e+00
2.802323929709111e-06	4.698791e+00	-1.743999e+00
2.806173565777148e-06	4.698868e+00	-1.740722e+00
2.811849042670504e-06	4.698984e+00	-1.735891e+00
2.817290188324769e-06	4.699094e+00	-1.731262e+00
2.821744746115545e-06	4.699184e+00	-1.727474e+00
2.825099553608549e-06	4.699252e+00	-1.724622e+00
2.827673849832655e-06	4.699303e+00	-1.722434e+00
2.830406446735099e-06	4.699357e+00	-1.720112e+00
2.833101969358133e-06	4.699408e+00	-1.717822e+00
2.835860388638884e-06	4.699459e+00	-1.715479e+00
2.838772568118436e-06	4.699510e+00	-1.713006e+00
2.840821501846631e-06	4.699544e+00	-1.711266e+00
2.842565081598563e-06	4.699572e+00	-1.709786e+00
2.844028916725678e-06	4.699594e+00	-1.708544e+00
2.845043039848612e-06	4.699608e+00	-1.707683e+00
2.845702596680939e-06	4.699617e+00	-1.707123e+00
2.846325177332468e-06	4.699625e+00	-1.706595e+00
2.846954951306324e-06	4.699634e+00	-1.706060e+00
2.847636315731709e-06	4.699643e+00	-1.705482e+00
2.848817112785593e-06	4.699658e+00	-1.704480e+00
2.850417230586006e-06	4.699679e+00	-1.703123e+00
2.852962307785777e-06	4.699712e+00	-1.700964e+00
2.854634604091983e-06	4.699734e+00	-1.699546e+00
2.855719868103887e-06	4.699749e+00	-1.698626e+00
2.856405252032101e-06	4.699758e+00	-1.698044e+00
2.856973099303042e-06	4.699765e+00	-1.697563e+00
2.857562422561638e-06	4.699772e+00	-1.697063e+00
2.858273010405196e-06	4.699782e+00	-1.696461e+00
2.859047119065615e-06	4.699792e+00	-1.695805e+00
2.860145939747412e-06	4.699806e+00	-1.694873e+00
2.861715743600075e-06	4.699827e+00	-1.693543e+00
2.864855351305184e-06	4.699867e+00	-1.690882e+00
2.868388723898394e-06	4.699913e+00	-1.687889e+00
2.871976316761804e-06	4.699959e+00	-1.684850e+00
2.875389661820662e-06	4.700004e+00	-1.681960e+00
2.879195346812196e-06	4.700052e+00	-1.678738e+00
2.882786177556924e-06	4.700099e+00	-1.675699e+00
2.886681089582857e-06	4.700149e+00	-1.672404e+00
2.890884287749329e-06	4.700202e+00	-1.668850e+00
2.895937543160665e-06	4.700267e+00	-1.664578e+00
2.900879388550168e-06	4.700330e+00	-1.660402e+00
2.909021979846703e-06	4.700433e+00	-1.653525e+00
2.916930818231897e-06	4.700532e+00	-1.646849e+00
2.926930818231838e-06	4.700658e+00	-1.638414e+00
2.936930818231778e-06	4.700783e+00	-1.629985e+00
2.945209719973233e-06	4.700886e+00	-1.623012e+00
2.950239768438872e-06	4.700949e+00	-1.618778e+00
2.956700755755211e-06	4.701028e+00	-1.613341e+00
2.959480150315635e-06	4.701063e+00	-1.611004e+00
2.964340182552965e-06	4.701122e+00	-1.606917e+00
2.968822431246047e-06	4.701177e+00	-1.603150e+00
2.977197905053384e-06	4.701280e+00	-1.596115e+00
2.986474485992341e-06	4.701392e+00	-1.588327e+00
2.996474485992282e-06	4.701513e+00	-1.579939e+00
3.006474485992222e-06	4.701633e+00	-1.571557e+00
3.016474485992163e-06	4.701753e+00	-1.563181e+00
3.026474485992104e-06	4.701872e+00	-1.554813e+00
3.036474485992044e-06	4.701990e+00	-1.546451e+00
3.046474485991985e-06	4.702108e+00	-1.538095e+00
3.056474485991926e-06	4.702225e+00	-1.529747e+00
3.066474485991866e-06	4.702341e+00	-1.521405e+00
3.076474485991807e-06	4.702457e+00	-1.513069e+00
3.086474485991747e-06	4.702572e+00	-1.504740e+00
3.096474485991688e-06	4.702686e+00	-1.496418e+00
3.106474485991629e-06	4.702800e+00	-1.488102e+00
3.116474485991569e-06	4.702912e+00	-1.479793e+00
3.126474485991510e-06	4.703025e+00	-1.471491e+00
3.136474485991450e-06	4.703136e+00	-1.463195e+00
3.146474485991391e-06	4.703248e+00	-1.454906e+00
3.156474485991332e-06	4.703358e+00	-1.446623e+00
3.166474485991272e-06	4.703467e+00	-1.438347e+00
3.176474485991213e-06	4.703576e+00	-1.430077e+00
3.186474485991153e-06	4.703685e+00	-1.421814e+00
3.196474485991094e-06	4.703793e+00	-1.413558e+00
3.206474485991035e-06	4.703899e+00	-1.405308e+00
3.216474485990975e-06	4.704006e+00	-1.397065e+00
3.226474485990916e-06	4.704111e+00	-1.388828e+00
3.236474485990857e-06	4.704216e+00	-1.380598e+00
3.246474485990797e-06	4.704321e+00	-1.372374e+00
3.256474485990738e-06	4.704424e+00	-1.364157e+00
3.266474485990678e-06	4.704527e+00	-1.355947e+00
3.276474485990619e-06	4.704630e+00	-1.347742e+00
3.286474485990560e-06	4.704731e+00	-1.339545e+00
3.296474485990500e-06	4.704832e+00	-1.331354e+00
3.306474485990441e-06	4.704933e+00	-1.323169e+00
3.316474485990381e-06	4.705032e+00	-1.314991e+00
3.326474485990322e-06	4.705132e+00	-1.306820e+00
3.336474485990263e-06	4.705230e+00	-1.298654e+00
3.346474485990203e-06	4.705328e+00	-1.290496e+00
3.356474485990144e-06	4.705424e+00	-1.282344e+00
3.366474485990084e-06	4.705521e+00	-1.274198e+00
3.376474485990025e-06	4.705616e+00	-1.266059e+00
3.386474485989966e-06	4.705711e+00	-1.257926e+00
3.396474485989906e-06	4.705806e+00	-1.249800e+00
3.406474485989847e-06	4.705900e+00	-1.241680e+00
3.416474485989788e-06	4.705993e+00	-1.233567e+00
3.426474485989728e-06	4.706085e+00	-1.225460e+00
3.436474485989669e-06	4.706177e+00	-1.217359e+00
3.446474485989609e-06	4.706268e+00	-1.209265e+00
3.456474485989550e-06	4.706358e+00	-1.201178e+00
3.466474485989491e-06	4.706448e+00	-1.193097e+00
3.476474485989431e-06	4.706537e+00	-1.185022e+00
3.486474485989372e-06	4.706626e+00	-1.176953e+00
3.496474485989312e-06	4.706714e+00	-1.168891e+00
3.506474485989253e-06	4.706800e+00	-1.160836e+00
3.516474485989194e-06	4.706887e+00	-1.152787e+00
3.526474485989134e-06	4.706973e+00	-1.144744e+00
3.536474485989075e-06	4.707058e+00	-1.136708e+00
3.546474485989016e-06	4.707142e+00	-1.128678e+00
3.556474485988956e-06	4.707226e+00	-1.120654e+00
3.566474485988897e-06	4.707310e+00	-1.112637e+00
3.576474485988837e-06	4.707392e+00	-1.104626e+00
3.586474485988778e-06	4.707474e+00	-1.096622e+00
3.596474485988719e-06	4.707555e+00	-1.088623e+00
3.606474485988659e-06	4.707636e+00	-1.080632e+00
3.616474485988600e-06	4.707716e+00	-1.072646e+00
3.626474485988540e-06	4.707795e+00	-1.064667e+00
3.636474485988481e-06	4.707873e+00	-1.056694e+00
3.646474485988422e-06	4.707951e+00	-1.048728e+00
3.656474485988362e-06	4.708028e+00	-1.040768e+00
3.666474485988303e-06	4.708105e+00	-1.032814e+00
3.676474485988243e-06	4.708181e+00	-1.024867e+00
3.686474485988184e-06	4.708256e+00	-1.016925e+00
3.696474485988125e-06	4.708331e+00	-1.008991e+00
3.706474485988065e-06	4.708405e+00	-1.001062e+00
3.716474485988006e-06	4.708478e+00	-9.931399e-01
3.726474485987947e-06	4.708550e+00	-9.852239e-01
3.736474485987887e-06	4.708623e+00	-9.773144e-01
3.746474485987828e-06	4.708694e+00	-9.694110e-01
3.756474485987768e-06	4.708765e+00	-9.615139e-01
3.766474485987709e-06	4.708835e+00	-9.536231e-01
3.776474485987650e-06	4.708904e+00	-9.457386e-01
3.786474485987590e-06	4.708973e+00	-9.378603e-01
3.796474485987531e-06	4.709041e+00	-9.299883e-01
3.806474485987471e-06	4.709108e+00	-9.221225e-01
3.816474485987412e-06	4.709175e+00	-9.142630e-01
3.826474485987353e-06	4.709241e+00	-9.064097e-01
3.836474485987293e-06	4.709306e+00	-8.985627e-01
3.846474485987234e-06	4.709371e+00	-8.907219e-01
3.856474485987174e-06	4.709435e+00	-8.828874e-01
3.866474485987115e-06	4.709499e+00	-8.750591e-01
3.876474485987056e-06	4.709561e+00	-8.672370e-01
3.886474485986996e-06	4.709624e+00	-8.594211e-01
3.896474485986937e-06	4.709685e+00	-8.516114e-01
3.906474485986878e-06	4.709746e+00	-8.438079e-01
3.916474485986818e-06	4.709806e+00	-8.360106e-01
3.926474485986759e-06	4.709866e+00	-8.282195e-01
3.936474485986699e-06	4.709925e+00	-8.204347e-01
3.946474485986640e-06	4.709983e+00	-8.126560e-01
3.956474485986581e-06	4.710041e+00	-8.048835e-01
3.966474485986521e-06	4.710097e+00	-7.971171e-01
3.976474485986462e-06	4.710154e+00	-7.893569e-01
3.986474485986402e-06	4.710209e+00	-7.816029e-01
3.996474485986343e-06	4.710264e+00	-7.738551e-01
4.006474485986284e-06	4.710319e+00	-7.661134e-01
4.016474485986224e-06	4.710372e+00	-7.583779e-01
4.026474485986165e-06	4.710425e+00	-7.506485e-01
4.036474485986105e-06	4.710478e+00	-7.429253e-01
4.046474485986046e-06	4.710529e+00	-7.352082e-01
4.056474485985987e-06	4.710580e+00	-7.274972e-01
4.066474485985927e-06	4.710630e+00	-7.197924e-01
4.076474485985868e-06	4.710680e+00	-7.120937e-01
4.086474485985809e-06	4.710730e+00	-7.044011e-01
4.096474485985749e-06	4.710778e+00	-6.967146e-01
4.106474485985690e-06	4.710826e+00	-6.890342e-01
4.116474485985630e-06	4.710873e+00	-6.813599e-01
4.126474485985571e-06	4.710919e+00	-6.736918e-01
4.136474485985512e-06	4.710965e+00	-6.660297e-01
4.146474485985452e-06	4.711010e+00	-6.583737e-01
4.156474485985393e-06	4.711055e+00	-6.507238e-01
4.166474485985333e-06	4.711099e+00	-6.430801e-01
4.176474485985274e-06	4.711142e+00	-6.354423e-01
4.186474485985215e-06	4.711185e+00	-6.278107e-01
4.196474485985155e-06	4.711226e+00	-6.201851e-01
4.206474485985096e-06	4.711268e+00	-6.125655e-01
4.216474485985037e-06	4.711308e+00	-6.049521e-01
4.226474485984977e-06	4.711349e+00	-5.973446e-01
4.236474485984918e-06	4.711388e+00	-5.897433e-01
4.246474485984858e-06	4.711427e+00	-5.821480e-01
4.256474485984799e-06	4.711465e+00	-5.745586e-01
4.266474485984740e-06	4.711502e+00	-5.669754e-01
4.276474485984680e-06	4.711539e+00	-5.593982e-01
4.286474485984621e-06	4.711575e+00	-5.518270e-01
4.296474485984561e-06	4.711610e+00	-5.442618e-01
4.306474485984502e-06	4.711645e+00	-5.367026e-01
4.316474485984443e-06	4.711679e+00	-5.291494e-01
4.326474485984383e-06	4.711713e+00	-5.216023e-01
4.336474485984324e-06	4.711746e+00	-5.140611e-01
4.346474485984264e-06	4.711778e+00	-5.065260e-01
4.356474485984205e-06	4.711810e+00	-4.989968e-01
4.366474485984146e-06	4.711841e+00	-4.914736e-01
4.376474485984086e-06	4.711871e+00	-4.839564e-01
4.386474485984027e-06	4.711900e+00	-4.764452e-01
4.396474485983968e-06	4.711929e+00	-4.689400e-01
4.406474485983908e-06	4.711957e+00	-4.614407e-01
4.416474485983849e-06	4.711985e+00	-4.539474e-01
4.426474485983789e-06	4.712012e+00	-4.464600e-01
4.436474485983730e-06	4.712039e+00	-4.389786e-01
4.446474485983671e-06	4.712064e+00	-4.315032e-01
4.456474485983611e-06	4.712090e+00	-4.240337e-01
4.466474485983552e-06	4.712114e+00	-4.165701e-01
4.476474485983492e-06	4.712137e+00	-4.091125e-01
4.486474485983433e-06	4.712161e+00	-4.016608e-01
4.496474485983374e-06	4.712183e+00	-3.942150e-01
4.506474485983314e-06	4.712205e+00	-3.867752e-01
4.516474485983255e-06	4.712226e+00	-3.793412e-01
4.526474485983195e-06	4.712247e+00	-3.719133e-01
4.536474485983136e-06	4.712267e+00	-3.644911e-01
4.546474485983077e-06	4.712286e+00	-3.570749e-01
4.556474485983017e-06	4.712305e+00	-3.496646e-01
4.566474485982958e-06	4.712322e+00	-3.422602e-01
4.576474485982899e-06	4.712340e+00	-3.348617e-01
4.586474485982839e-06	4.712357e+00	-3.274691e-01
4.596474485982780e-06	4.712373e+00	-3.200823e-01
4.606474485982720e-06	4.712388e+00	-3.127014e-01
4.616474485982661e-06	4.712403e+00	-3.053264e-01
4.626474485982602e-06	4.712417e+00	-2.979573e-01
4.636474485982542e-06	4.712430e+00	-2.905940e-01
4.646474485982483e-06	4.712443e+00	-2.832366e-01
4.656474485982423e-06	4.712456e+00	-2.758850e-01
4.666474485982364e-06	4.712467e+00	-2.685393e-01
4.676474485982305e-06	4.712478e+00	-2.611994e-01
4.686474485982245e-06	4.712488e+00	-2.538654e-01
4.696474485982186e-06	4.712498e+00	-2.465372e-01
4.706474485982126e-06	4.712507e+00	-2.392148e-01
4.716474485982067e-06	4.712515e+00	-2.318983e-01
4.726474485982008e-06	4.712523e+00	-2.245876e-01
4.736474485981948e-06	4.712530e+00	-2.172827e-01
4.746474485981889e-06	4.712536e+00	-2.099836e-01
4.756474485981830e-06	4.712542e+00	-2.026903e-01
4.766474485981770e-06	4.712547e+00	-1.954028e-01
4.776474485981711e-06	4.712552e+00	-1.881211e-01
4.786474485981651e-06	4.712555e+00	-1.808452e-01
4.796474485981592e-06	4.712559e+00	-1.735751e-01
4.806474485981533e-06	4.712561e+00	-1.663108e-01
4.816474485981473e-06	4.712563e+00	-1.590523e-01
4.826474485981414e-06	4.712564e+00	-1.517995e-01
4.836474485981354e-06	4.712565e+00	-1.445526e-01
4.846474485981295e-06	4.712565e+00	-1.373113e-01
4.856474485981236e-06	4.712564e+00	-1.300759e-01
4.866474485981176e-06	4.712563e+00	-1.228462e-01
4.876474485981117e-06	4.712561e+00	-1.156223e-01
4.886474485981058e-06	4.712559e+00	-1.084041e-01
4.896474485980998e-06	4.712555e+00	-1.011916e-01
4.906474485980939e-06	4.712552e+00	-9.398492e-02
4.916474485980879e-06	4.712547e+00	-8.678395e-02
4.926474485980820e-06	4.712542e+00	-7.958871e-02
4.936474485980761e-06	4.712536e+00	-7.239921e-02
4.946474485980701e-06	4.712530e+00	-6.521542e-02
4.956474485980642e-06	4.712523e+00	-5.803736e-02
4.966474485980582e-06	4.712515e+00	-5.086500e-02
4.976474485980523e-06	4.712506e+00	-4.369836e-02
4.986474485980464e-06	4.712498e+00	-3.653742e-02
4.996474485980404e-06	4.712488e+00	-2.938218e-02
5.006474485980345e-06	4.712478e+00	-2.223264e-02
5.016474485980285e-06	4.712467e+00	-1.508879e-02
5.026474485980226e-06	4.712455e+00	-7.950628e-03
5.036474485980167e-06	4.712443e+00	-8.181491e-04
5.046474485980107e-06	4.712430e+00	6.308651e-03
5.056474485980048e-06	4.712417e+00	1.342978e-02
5.066474485979989e-06	4.712403e+00	2.054523e-02
5.076474485979929e-06	4.712388e+00	2.765502e-02
5.086474485979870e-06	4.712373e+00	3.475915e-02
5.096474485979810e-06	4.712357e+00	4.185763e-02
5.106474485979751e-06	4.712340e+00	4.895044e-02
5.116474485979692e-06	4.712323e+00	5.603762e-02
5.126474485979632e-06	4.712305e+00	6.311914e-02
5.136474485979573e-06	4.712286e+00	7.019503e-02
